#  HZ   S   DB   R     50.00 
! Rohde & Schwarz ZVA40 2Ports - Version 3.90 - 1145.1110k40 SN: 100154
! Date: 2006-06-10 02:06:39
! Measurements: S11 S21 S12 S22 
! 
 1.000000000000000E7    -3.974571644752393E1  -6.720908294004482E1  -2.416934675502390E-2   1.423408778000545E-1   1.550395940574344E-1  -1.175945402583734  -4.275049174808352E1  -1.781829496575834E2  
 2.000000000000000E7    -4.600330036681041E1  -6.018182317835498E1  -2.243740255111980E-1  -4.156318678295770   6.645642756752504E-2  -5.587350945824122  -4.439504559673868E1  -1.106103522753654E2  
 3.000000000000000E7    -4.314863399664745E1  -8.058847657580780E1  -1.627355873872674E-1  -8.164180863397476  -7.790088491069609E-2  -8.476458194529126  -4.469849814456100E1  -9.619648177066681E1  
 4.000000000000000E7    -4.117552203521093E1  -9.326526587555244E1  -1.669250422546394E-1  -1.081777461492615E1  -1.317561422517669E-2  -1.168651489936866E1  -3.788534338952466E1  -1.093965146331596E2  
 5.000000000000000E7    -3.712751487349597E1  -9.492808623889302E1  -8.674562480316525E-2  -1.362035812236635E1  -4.514187344883015E-2  -1.430585468588316E1  -3.754719821451989E1  -1.156881526145493E2  
 6.000000000000000E7    -3.569570360047933E1  -9.967148315356781E1  -7.663854956493664E-2  -1.640382085022067E1  -3.222017057942801E-2  -1.691714050761084E1  -3.559893144650842E1  -1.058013817076890E2  
 7.000000000000000E7    -3.444816893155240E1  -1.005226103376225E2  -9.803416433485625E-2  -1.934727404255345E1  -7.074753832725504E-2  -1.981435286401175E1  -3.365088133164495E1  -1.060111647347708E2  
 8.000000000000000E7    -3.368070666685114E1  -1.014403727479706E2  -5.504841262096154E-2  -2.150834688240946E1  -9.523401117410676E-2  -2.299757508643201E1  -3.259196713856110E1  -1.031207181116743E2  
 9.000000000000000E7    -3.294045571572393E1  -1.030022176869469E2  -1.093989824899082E-1  -2.411675868878652E1  -1.399015307580140E-1  -2.673063146567484E1  -3.275656269177152E1  -1.044786572634641E2  
 1.000000000000000E8    -3.190470511193264E1  -1.064155303185102E2  -1.444495766225376E-1  -2.786843284372511E1  -1.259039109483420E-1  -2.821654851122417E1  -3.231343372342942E1  -1.117835246543403E2  
 1.100000000000000E8    -3.146253049556143E1  -1.128782718683059E2  -1.102145956481393E-1  -3.068764938580695E1  -8.626522806999257E-2  -3.061677434063195E1  -3.204991975825371E1  -1.189585463156203E2  
 1.200000000000000E8    -3.114573808303591E1  -1.178032028833461E2  -1.406781972673531E-1  -3.382744249878999E1  -8.284294802103422E-2  -3.327803617404049E1  -3.130426009543757E1  -1.240771537220898E2  
 1.300000000000000E8    -3.034788622842707E1  -1.185516816432432E2  -1.607054651041795E-1  -3.668497250481502E1  -5.691966482181574E-2  -3.592095431288522E1  -3.005410509871696E1  -1.275228964257752E2  
 1.400000000000000E8    -2.949462413437871E1  -1.193724910630485E2  -1.112850939475942E-1  -3.909398892541142E1  -8.027290490551883E-2  -3.905346051834711E1  -2.937711503215844E1  -1.309086412147338E2  
 1.500000000000000E8    -2.890909881057336E1  -1.228401412534909E2  -1.238114640392436E-1  -4.186957750791037E1  -1.054515955504791E-1  -4.199062803312717E1  -2.887295410926414E1  -1.324628163638771E2  
 1.600000000000000E8    -2.872380675627950E1  -1.249892257534686E2  -1.299096966837253E-1  -4.471223965202830E1  -1.018846919674005E-1  -4.482302450286127E1  -2.862431031159578E1  -1.323762295193384E2  
 1.700000000000000E8    -2.856050061344469E1  -1.247739273381363E2  -1.078002729592084E-1  -4.743967220436870E1  -8.433083152065819E-2  -4.762339950522959E1  -2.866318716856764E1  -1.331650597792882E2  
 1.800000000000000E8    -2.841702274653965E1  -1.271360845062013E2  -1.217619050059084E-1  -5.031456727529900E1  -9.133263566668116E-2  -5.020389177027472E1  -2.858777475640253E1  -1.350686935804504E2  
 1.900000000000000E8    -2.834418690779124E1  -1.311293759415113E2  -1.311222080649444E-1  -5.313115772111902E1  -8.803742306314760E-2  -5.309604784817971E1  -2.811839131013873E1  -1.423205427638851E2  
 2.000000000000000E8    -2.799395958806990E1  -1.381911554895722E2  -1.256530461414087E-1  -5.605252772655628E1  -9.387045814384110E-2  -5.582972853518425E1  -2.836436875667923E1  -1.483469931846933E2  
 2.100000000000000E8    -2.816713756416130E1  -1.409450470536804E2  -1.026158351028285E-1  -5.886230211553086E1  -1.002629710085969E-1  -5.864656332411906E1  -2.804443618603422E1  -1.524830410925754E2  
 2.200000000000000E8    -2.771931781296033E1  -1.429195311594348E2  -1.520468590149940E-1  -6.165449444660476E1  -1.212838701213910E-1  -6.152555393836870E1  -2.756736627567504E1  -1.554324401146153E2  
 2.300000000000000E8    -2.713824011316176E1  -1.433982678148726E2  -1.409467623931677E-1  -6.437321837039492E1  -9.976140291348130E-2  -6.418386051919319E1  -2.717697399222293E1  -1.564159670691365E2  
 2.400000000000000E8    -2.663023329159278E1  -1.439123139556735E2  -1.263006391889297E-1  -6.721096038336786E1  -1.064061472811755E-1  -6.699788738605049E1  -2.676687889574611E1  -1.574644804731000E2  
 2.500000000000000E8    -2.662164786981101E1  -1.475266821658555E2  -1.417506543614891E-1  -6.999975725743914E1  -1.122060125086574E-1  -6.976080801630215E1  -2.671536819140362E1  -1.592944160046373E2  
 2.600000000000000E8    -2.677228955592629E1  -1.504853787831983E2  -1.361191334454016E-1  -7.279427893492422E1  -1.312642255206747E-1  -7.264317096057286E1  -2.683787807750432E1  -1.627661711104659E2  
 2.700000000000000E8    -2.708769730773567E1  -1.535291049444253E2  -1.237506466447910E-1  -7.557164484147236E1  -1.142448341954912E-1  -7.542025951563196E1  -2.709998811115984E1  -1.666138755151929E2  
 2.800000000000000E8    -2.741552969612141E1  -1.561306190227177E2  -1.318659001018380E-1  -7.834608404728290E1  -1.091317682152894E-1  -7.821878999435823E1  -2.736216107932329E1  -1.713596093098638E2  
 2.900000000000000E8    -2.713156834612141E1  -1.578668905426865E2  -1.461342644721082E-1  -8.110819854880744E1  -1.289148421481416E-1  -8.094646750686334E1  -2.711320404267404E1  -1.755116929422076E2  
 3.000000000000000E8    -2.673749363803579E1  -1.631486252950101E2  -1.340612888178359E-1  -8.395407124486157E1  -1.134269512686574E-1  -8.369924944139027E1  -2.683741965731033E1   1.786137650237738E2  
 3.100000000000000E8    -2.671189044222590E1  -1.652734393245437E2  -1.431506758085687E-1  -8.678742775898549E1  -1.249414096674609E-1  -8.655681174056275E1  -2.670452981653610E1   1.766981423503412E2  
 3.200000000000000E8    -2.635430439404345E1  -1.666230559892588E2  -1.697386885328563E-1  -8.959489622314463E1  -1.218468732352925E-1  -8.928699155560582E1  -2.633724075550624E1   1.751923799304279E2  
 3.300000000000000E8    -2.620515478994051E1  -1.678984927996971E2  -1.444361866046035E-1  -9.236353160723684E1  -1.317389260269032E-1  -9.209021190770369E1  -2.639039448711851E1   1.739158794324955E2  
 3.400000000000000E8    -2.626549598494526E1  -1.691093685301185E2  -1.414684817458651E-1  -9.512874236685613E1  -1.193404904439695E-1  -9.495347191617397E1  -2.643171294436827E1   1.721055918003744E2  
 3.500000000000000E8    -2.648850844308796E1  -1.713593841104963E2  -1.506629877491485E-1  -9.786063486699057E1  -1.022439080354112E-1  -9.773487292185251E1  -2.681279870333708E1   1.689859856971177E2  
 3.600000000000000E8    -2.692044849575532E1  -1.743394711040745E2  -1.381026855457669E-1  -1.006531014661031E2  -1.106752205814666E-1  -1.004901745944143E2  -2.710386353804558E1   1.640093537177475E2  
 3.700000000000000E8    -2.721951055051879E1  -1.771567170707866E2  -1.469656978656851E-1  -1.034619218578227E2  -1.130698330765596E-1  -1.033348686372180E2  -2.737285505148877E1   1.587455644242639E2  
 3.800000000000000E8    -2.730019479777223E1   1.798606943681976E2  -1.554724743743797E-1  -1.062501519662560E2  -1.203628800104125E-1  -1.060958228513950E2  -2.729783175278131E1   1.538121669722358E2  
 3.900000000000000E8    -2.708967445101373E1   1.767641672075288E2  -1.542528622910767E-1  -1.090934300900985E2  -1.302905596099583E-1  -1.089006853404031E2  -2.698877092673063E1   1.506119000376680E2  
 4.000000000000000E8    -2.666619330347920E1   1.732712077415574E2  -1.562612651780048E-1  -1.119356669780429E2  -1.149348545994482E-1  -1.116050582598685E2  -2.649664047000909E1   1.473409856891666E2  
 4.100000000000000E8    -2.683001473703320E1   1.703850535507613E2  -1.457553915554336E-1  -1.147368455664411E2  -1.253335949287443E-1  -1.144467407764556E2  -2.666630651684582E1   1.423596914528099E2  
 4.200000000000000E8    -2.696564672598557E1   1.724124731031635E2  -1.475051249739340E-1  -1.176267058714487E2  -1.219709916617952E-1  -1.175262953770525E2  -2.739181811246694E1   1.426153216396575E2  
 4.300000000000000E8    -2.659478971252669E1   1.704954783827506E2  -1.468556714399572E-1  -1.204359073051233E2  -1.219807593994694E-1  -1.203399850147092E2  -2.744229291076304E1   1.450769972929263E2  
 4.400000000000000E8    -2.739336594553173E1   1.656306744030027E2  -1.469538121590233E-1  -1.232603800116600E2  -1.254281338034519E-1  -1.230771441854894E2  -2.732976430072189E1   1.375196459025553E2  
 4.500000000000000E8    -2.823147009995160E1   1.640359700963300E2  -1.525633140948670E-1  -1.257213147898608E2  -1.235777648143229E-1  -1.256591249474796E2  -2.818507259143574E1   1.300453350513762E2  
 4.600000000000000E8    -2.874396475574959E1   1.617096932101167E2  -1.546379064385509E-1  -1.285170124605291E2  -1.200529300121754E-1  -1.284722690508363E2  -2.864737711676463E1   1.244510143497313E2  
 4.700000000000000E8    -2.900373705390651E1   1.585306265276810E2  -1.588624968368333E-1  -1.313986668527267E2  -1.204247188607367E-1  -1.312765042937428E2  -2.869974999867304E1   1.194351615357628E2  
 4.800000000000000E8    -2.903971991875445E1   1.560544344776830E2  -1.668625832918851E-1  -1.341899364142666E2  -1.194540676581163E-1  -1.339576524925043E2  -2.862058424253230E1   1.151437031688924E2  
 4.900000000000000E8    -2.885817751513305E1   1.552839435594640E2  -1.519580991751368E-1  -1.369643561221862E2  -1.218149122715366E-1  -1.367943783584924E2  -2.876601055358019E1   1.137560604886841E2  
 5.000000000000000E8    -2.882784040568467E1   1.542129486379550E2  -1.604473864105885E-1  -1.397681344234363E2  -1.261280387338873E-1  -1.395401078270267E2  -2.892476550307956E1   1.128851239212460E2  
 5.100000000000000E8    -2.919017042196381E1   1.524642856934773E2  -1.445747807668250E-1  -1.425411768512319E2  -1.200538453773971E-1  -1.423143697414616E2  -2.919042303310739E1   1.095305911454353E2  
 5.200000000000000E8    -2.994431670591374E1   1.517104384778154E2  -1.510699915214675E-1  -1.454733510662132E2  -1.186993526278316E-1  -1.450444471770261E2  -3.020158871444111E1   1.035637267592698E2  
 5.300000000000000E8    -3.110465190912042E1   1.519494400854512E2  -1.635632602650922E-1  -1.482815359571514E2  -1.249215219303033E-1  -1.478638233659539E2  -3.160249823757281E1   9.746510033562728E1  
 5.400000000000000E8    -3.228190067372125E1   1.527928445946199E2  -1.599717269213774E-1  -1.510076874755263E2  -1.212596342301066E-1  -1.506084217921569E2  -3.219882605722786E1   9.080979368376707E1  
 5.500000000000000E8    -3.355760658745235E1   1.496220854447924E2  -1.551118295090481E-1  -1.538791506250657E2  -1.138938614148178E-1  -1.533916515863209E2  -3.209496106028094E1   7.984803348625789E1  
 5.600000000000000E8    -3.456687132395135E1   1.517980787756387E2  -1.473492231776906E-1  -1.566873044703358E2  -1.187807748577769E-1  -1.560417630688021E2  -3.252545791040642E1   6.840661544511534E1  
 5.700000000000000E8    -3.428707087682289E1   1.513298075621971E2  -1.422504961651274E-1  -1.594084825904845E2  -1.218863611584557E-1  -1.589422051138875E2  -3.360858556307948E1   6.700953690005842E1  
 5.800000000000000E8    -3.443261557724677E1   1.475916744803026E2  -1.476947729227467E-1  -1.620575834559408E2  -1.182551860562296E-1  -1.619627923220079E2  -3.376407054234027E1   6.788548877452315E1  
 5.900000000000000E8    -3.554248826512565E1   1.506168364923857E2  -1.517280446385564E-1  -1.647023847656282E2  -1.219633716928526E-1  -1.648511651314349E2  -3.440002665849538E1   6.120943078466555E1  
 6.000000000000000E8    -3.642097925806169E1   1.596481279558420E2  -1.542244614409136E-1  -1.674315077392057E2  -1.180457451866954E-1  -1.676816435008261E2  -3.651470783207363E1   4.853405473333361E1  
 6.100000000000000E8    -3.756358126428318E1   1.706538104406811E2  -1.526031481302172E-1  -1.703831308234184E2  -1.202473183919497E-1  -1.703682111492859E2  -3.867632527516565E1   3.195724668744462E1  
 6.200000000000000E8    -3.873535615539056E1  -1.732132662477663E2  -1.512606926326346E-1  -1.732782476290926E2  -1.134188347573041E-1  -1.730333061694149E2  -3.866017600229314E1   9.909933748962935  
 6.300000000000000E8    -3.946469734145995E1  -1.506634432078288E2  -1.580279462975433E-1  -1.761563756701933E2  -1.128679257492569E-1  -1.758049362885524E2  -3.696254089241386E1  -1.029346360973523E1  
 6.400000000000000E8    -3.850049955736663E1  -1.333628680274559E2  -1.536466394313510E-1  -1.790885498610117E2  -1.207142460812024E-1  -1.785488740061720E2  -3.560491670885493E1  -2.503621264735628E1  
 6.500000000000000E8    -3.706570419223189E1  -1.287634193321585E2  -1.555070518787259E-1   1.781064839607948E2  -1.251367667049972E-1   1.787344270142426E2  -3.519449594182212E1  -3.378084150169788E1  
 6.600000000000000E8    -3.639243323156951E1  -1.326040311131355E2  -1.532546586721606E-1   1.753424510665703E2  -1.226590613433206E-1   1.759372463202884E2  -3.539658014947901E1  -3.917182744985627E1  
 6.700000000000000E8    -3.657074637326582E1  -1.354156871986030E2  -1.506619846065657E-1   1.724717750539134E2  -1.150459514760024E-1   1.731332193718469E2  -3.544669451970643E1  -4.607840382344085E1  
 6.800000000000000E8    -3.600925936957297E1  -1.306928203600238E2  -1.529226904184743E-1   1.696602342347361E2  -1.185554637297113E-1   1.703288764246629E2  -3.477437314436799E1  -5.723805495625403E1  
 6.900000000000000E8    -3.427696576420836E1  -1.242344238403821E2  -1.578535380740221E-1   1.668741488568580E2  -1.172983698748253E-1   1.675136983355532E2  -3.339016241646915E1  -6.891727748714034E1  
 7.000000000000000E8    -3.213778551984355E1  -1.213059192988986E2  -1.578635529599855E-1   1.640622738598044E2  -1.236616803114259E-1   1.647034831431969E2  -3.178520345955449E1  -7.856116319604119E1  
 7.100000000000000E8    -3.061516242509163E1  -1.216037016975394E2  -1.629921911370693E-1   1.612372994201366E2  -1.289272229883116E-1   1.619711854724826E2  -3.044823967802689E1  -8.555135254029187E1  
 7.200000000000000E8    -2.982109305837134E1  -1.229887166504077E2  -1.622962241362055E-1   1.584188741765782E2  -1.238119422370901E-1   1.592019147733396E2  -2.966187236281958E1  -8.980133046916599E1  
 7.300000000000000E8    -2.953912489485078E1  -1.234942828448161E2  -1.541074017613187E-1   1.555882753572792E2  -1.221536062959397E-1   1.563990143599631E2  -2.926452093387072E1  -9.153054093331117E1  
 7.400000000000000E8    -2.935621786772660E1  -1.237068376689264E2  -1.710425379598630E-1   1.527709124633566E2  -1.312517677879964E-1   1.536251062365503E2  -2.895431117248820E1  -9.389584958054950E1  
 7.500000000000000E8    -2.907094282758475E1  -1.247001617889004E2  -1.727464843760300E-1   1.499663529840200E2  -1.295373531246679E-1   1.508352403501116E2  -2.863601461278251E1  -9.822744513445981E1  
 7.600000000000000E8    -2.864993366240739E1  -1.277557082519641E2  -1.706210594950069E-1   1.472295866619046E2  -1.243043941525716E-1   1.480613225362828E2  -2.836773146396309E1  -1.052705118131304E2  
 7.700000000000000E8    -2.818302075911772E1  -1.311504965966271E2  -1.755424355702522E-1   1.444579633144050E2  -1.229649474498100E-1   1.452565428379149E2  -2.809679096744987E1  -1.120936620866165E2  
 7.800000000000000E8    -2.769724413811204E1  -1.331254747309960E2  -1.654847415999805E-1   1.416566030736025E2  -1.281352190358458E-1   1.423697534192795E2  -2.755819148602959E1  -1.167589209548305E2  
 7.900000000000000E8    -2.702181519657710E1  -1.332768030090660E2  -1.645383514967355E-1   1.389490125932153E2  -1.315872018548603E-1   1.395776567957676E2  -2.689349342180780E1  -1.203088805939841E2  
 8.000000000000000E8    -2.628408029087610E1  -1.333341500434849E2  -1.673545224375222E-1   1.361599142645649E2  -1.355503717224232E-1   1.367576409941235E2  -2.618750739433381E1  -1.227664337648074E2  
 8.100000000000000E8    -2.564896980866674E1  -1.347527548214768E2  -1.694421559224619E-1   1.334094673669635E2  -1.388660415049004E-1   1.338972049967967E2  -2.572776420605275E1  -1.253296471531150E2  
 8.200000000000000E8    -2.541582324066359E1  -1.375155450142861E2  -1.666531514256089E-1   1.306272535288009E2  -1.345773970438747E-1   1.310560151159594E2  -2.552341122159146E1  -1.288141341787800E2  
 8.300000000000000E8    -2.542337386637698E1  -1.402554277596299E2  -1.717455902891713E-1   1.278161702598555E2  -1.362226170609383E-1   1.282674717971916E2  -2.555585090556263E1  -1.328327993007249E2  
 8.400000000000000E8    -2.557220363641072E1  -1.428514979936306E2  -1.790927895075172E-1   1.250565035911730E2  -1.400034391987865E-1   1.255108327965594E2  -2.563432685960140E1  -1.372632208730029E2  
 8.500000000000000E8    -2.560891904257239E1  -1.447796582160824E2  -1.778336599016947E-1   1.222809127340947E2  -1.351763176380234E-1   1.227230035630989E2  -2.553793763390267E1  -1.422465686421484E2  
 8.600000000000000E8    -2.532354391563165E1  -1.461281029054264E2  -1.721508409023327E-1   1.195157430018357E2  -1.270862925168076E-1   1.198982216120501E2  -2.524272881779483E1  -1.470453075552844E2  
 8.700000000000000E8    -2.482901401011108E1  -1.474547016102881E2  -1.705236589474473E-1   1.167011506257894E2  -1.367641670321741E-1   1.170968296733415E2  -2.488813227849236E1  -1.507516653042096E2  
 8.800000000000000E8    -2.426303570713261E1  -1.493465105319813E2  -1.789949039422552E-1   1.138927713546698E2  -1.382303328288057E-1   1.143019675681670E2  -2.440580481609285E1  -1.530749268397288E2  
 8.900000000000000E8    -2.391005888419142E1  -1.520232333697244E2  -1.797817453220972E-1   1.111354667618675E2  -1.397019273499241E-1   1.115009651476855E2  -2.401137283644566E1  -1.559003824472543E2  
 9.000000000000000E8    -2.392071667710668E1  -1.539523812687868E2  -1.883052524424101E-1   1.083722518320636E2  -1.446988245120590E-1   1.087352754379895E2  -2.394442453439067E1  -1.594513240882903E2  
 9.100000000000000E8    -2.398615905627123E1  -1.548950270897456E2  -1.800961567974552E-1   1.055646829987832E2  -1.405151348616143E-1   1.059419287376898E2  -2.414019990766616E1  -1.627298665124966E2  
 9.200000000000000E8    -2.408522782200982E1  -1.567815797797584E2  -1.756299386865196E-1   1.027031700841682E2  -1.360020718942324E-1   1.031055034525673E2  -2.437880564105477E1  -1.662871089963112E2  
 9.300000000000000E8    -2.416775315957443E1  -1.593590377081957E2  -1.773588085067804E-1   9.989799669873354E1  -1.394239756930700E-1   1.002760940670630E2  -2.450097467257494E1  -1.707871029642800E2  
 9.400000000000000E8    -2.425903802261974E1  -1.620420484385147E2  -1.813139471941909E-1   9.707669372496009E1  -1.481399734406136E-1   9.744777662398505E1  -2.450918929698935E1  -1.760824264449123E2  
 9.500000000000000E8    -2.419373031166058E1  -1.638985112131812E2  -1.845267207379603E-1   9.432149297097472E1  -1.529621093409152E-1   9.475428606858573E1  -2.438427093148994E1   1.793056486698504E2  
 9.600000000000000E8    -2.387991330046983E1  -1.656881018955524E2  -1.765106408709867E-1   9.155908669466996E1  -1.485350896152212E-1   9.201285446776811E1  -2.417393126608203E1   1.760486584527088E2  
 9.700000000000000E8    -2.356198676120932E1  -1.678377048891634E2  -1.790342066483758E-1   8.874532616594956E1  -1.395089126959979E-1   8.924528407909023E1  -2.392280551562166E1   1.734033009995050E2  
